Freq_Hz,Freq_GHz,S21_dB,S11_dB
10000000,0.0100,-0.0001,-46.7861
17995992,0.0180,-0.0003,-41.6854
25991984,0.0260,-0.0006,-38.4965
33987976,0.0340,-0.0010,-36.1728
41983968,0.0420,-0.0016,-34.3452
49979960,0.0500,-0.0023,-32.8402
57975952,0.0580,-0.0030,-31.5620
65971944,0.0660,-0.0039,-30.4522
73967936,0.0740,-0.0049,-29.4725
81963928,0.0820,-0.0060,-28.5966
89959920,0.0900,-0.0072,-27.8053
97955912,0.0980,-0.0085,-27.0846
105951904,0.1060,-0.0099,-26.4236
113947896,0.1139,-0.0114,-25.8138
121943888,0.1219,-0.0130,-25.2486
129939880,0.1299,-0.0147,-24.7225
137935872,0.1379,-0.0164,-24.2309
145931864,0.1459,-0.0183,-23.7703
153927856,0.1539,-0.0202,-23.3375
161923848,0.1619,-0.0222,-22.9299
169919840,0.1699,-0.0242,-22.5452
177915832,0.1779,-0.0264,-22.1815
185911824,0.1859,-0.0285,-21.8371
193907816,0.1939,-0.0308,-21.5105
201903808,0.2019,-0.0331,-21.2005
209899800,0.2099,-0.0354,-20.9059
217895792,0.2179,-0.0378,-20.6257
225891784,0.2259,-0.0402,-20.3591
233887776,0.2339,-0.0426,-20.1051
241883768,0.2419,-0.0451,-19.8633
249879760,0.2499,-0.0475,-19.6328
257875752,0.2579,-0.0500,-19.4131
265871743,0.2659,-0.0525,-19.2037
273867735,0.2739,-0.0550,-19.0042
281863727,0.2819,-0.0574,-18.8141
289859719,0.2899,-0.0599,-18.6330
297855711,0.2979,-0.0624,-18.4606
305851703,0.3059,-0.0648,-18.2966
313847695,0.3138,-0.0672,-18.1406
321843687,0.3218,-0.0695,-17.9925
329839679,0.3298,-0.0718,-17.8519
337835671,0.3378,-0.0741,-17.7187
345831663,0.3458,-0.0763,-17.5927
353827655,0.3538,-0.0784,-17.4738
361823647,0.3618,-0.0805,-17.3616
369819639,0.3698,-0.0825,-17.2562
377815631,0.3778,-0.0844,-17.1575
385811623,0.3858,-0.0862,-17.0652
393807615,0.3938,-0.0880,-16.9793
401803607,0.4018,-0.0896,-16.8997
409799599,0.4098,-0.0911,-16.8264
417795591,0.4178,-0.0926,-16.7593
425791583,0.4258,-0.0939,-16.6984
433787575,0.4338,-0.0951,-16.6436
441783567,0.4418,-0.0962,-16.5949
449779559,0.4498,-0.0971,-16.5524
457775551,0.4578,-0.0980,-16.5160
465771543,0.4658,-0.0987,-16.4858
473767535,0.4738,-0.0992,-16.4618
481763527,0.4818,-0.0996,-16.4441
489759519,0.4898,-0.0999,-16.4326
497755511,0.4978,-0.1000,-16.4276
505751503,0.5058,-0.1000,-16.4290
513747495,0.5137,-0.0998,-16.4370
521743487,0.5217,-0.0994,-16.4518
529739479,0.5297,-0.0989,-16.4734
537735471,0.5377,-0.0983,-16.5020
545731463,0.5457,-0.0975,-16.5378
553727455,0.5537,-0.0965,-16.5810
561723447,0.5617,-0.0954,-16.6319
569719439,0.5697,-0.0941,-16.6906
577715431,0.5777,-0.0926,-16.7575
585711423,0.5857,-0.0910,-16.8328
593707415,0.5937,-0.0892,-16.9169
601703407,0.6017,-0.0873,-17.0102
609699399,0.6097,-0.0853,-17.1131
617695391,0.6177,-0.0830,-17.2260
625691383,0.6257,-0.0807,-17.3496
633687375,0.6337,-0.0782,-17.4842
641683367,0.6417,-0.0756,-17.6307
649679359,0.6497,-0.0729,-17.7897
657675351,0.6577,-0.0700,-17.9620
665671343,0.6657,-0.0670,-18.1485
673667335,0.6737,-0.0640,-18.3503
681663327,0.6817,-0.0608,-18.5684
689659319,0.6897,-0.0576,-18.8042
697655311,0.6977,-0.0543,-19.0593
705651303,0.7057,-0.0509,-19.3353
713647295,0.7136,-0.0475,-19.6341
721643287,0.7216,-0.0441,-19.9583
729639279,0.7296,-0.0406,-20.3103
737635271,0.7376,-0.0372,-20.6936
745631263,0.7456,-0.0338,-21.1118
753627255,0.7536,-0.0304,-21.5697
761623246,0.7616,-0.0270,-22.0729
769619238,0.7696,-0.0238,-22.6285
777615230,0.7776,-0.0206,-23.2452
785611222,0.7856,-0.0176,-23.9346
793607214,0.7936,-0.0147,-24.7115
801603206,0.8016,-0.0120,-25.5962
809599198,0.8096,-0.0095,-26.6170
817595190,0.8176,-0.0072,-27.8153
825591182,0.8256,-0.0052,-29.2549
833587174,0.8336,-0.0034,-31.0424
841583166,0.8416,-0.0020,-33.3756
849579158,0.8496,-0.0009,-36.6933
857575150,0.8576,-0.0003,-42.3548
865571142,0.8656,-0.0000,-67.6250
873567134,0.8736,-0.0002,-43.1020
881563126,0.8816,-0.0009,-36.7054
889559118,0.8896,-0.0022,-32.9825
897555110,0.8976,-0.0040,-30.3266
905551102,0.9056,-0.0065,-28.2496
913547094,0.9135,-0.0097,-26.5370
921543086,0.9215,-0.0135,-25.0754
929539078,0.9295,-0.0182,-23.7975
937535070,0.9375,-0.0236,-22.6600
945531062,0.9455,-0.0299,-21.6335
953527054,0.9535,-0.0371,-20.6970
961523046,0.9615,-0.0453,-19.8350
969519038,0.9695,-0.0546,-19.0360
977515030,0.9775,-0.0649,-18.2907
985511022,0.9855,-0.0763,-17.5922
993507014,0.9935,-0.0889,-16.9345
1001503006,1.0015,-0.1027,-16.3131
1009498998,1.0095,-0.1178,-15.7239
1017494990,1.0175,-0.1343,-15.1638
1025490982,1.0255,-0.1522,-14.6301
1033486974,1.0335,-0.1715,-14.1204
1041482966,1.0415,-0.1924,-13.6326
1049478958,1.0495,-0.2148,-13.1652
1057474950,1.0575,-0.2388,-12.7166
1065470942,1.0655,-0.2645,-12.2854
1073466934,1.0735,-0.2919,-11.8706
1081462926,1.0815,-0.3211,-11.4710
1089458918,1.0895,-0.3521,-11.0859
1097454910,1.0975,-0.3850,-10.7144
1105450902,1.1055,-0.4198,-10.3558
1113446894,1.1134,-0.4565,-10.0095
1121442886,1.1214,-0.4953,-9.6748
1129438878,1.1294,-0.5360,-9.3512
1137434870,1.1374,-0.5789,-9.0383
1145430862,1.1454,-0.6238,-8.7356
1153426854,1.1534,-0.6709,-8.4427
1161422846,1.1614,-0.7201,-8.1592
1169418838,1.1694,-0.7714,-7.8848
1177414830,1.1774,-0.8250,-7.6192
1185410822,1.1854,-0.8808,-7.3621
1193406814,1.1934,-0.9388,-7.1131
1201402806,1.2014,-0.9990,-6.8721
1209398798,1.2094,-1.0615,-6.6387
1217394790,1.2174,-1.1261,-6.4128
1225390782,1.2254,-1.1931,-6.1941
1233386774,1.2334,-1.2622,-5.9825
1241382766,1.2414,-1.3335,-5.7776
1249378758,1.2494,-1.4070,-5.5794
1257374749,1.2574,-1.4827,-5.3876
1265370741,1.2654,-1.5605,-5.2020
1273366733,1.2734,-1.6405,-5.0225
1281362725,1.2814,-1.7225,-4.8490
1289358717,1.2894,-1.8067,-4.6811
1297354709,1.2974,-1.8928,-4.5189
1305350701,1.3054,-1.9809,-4.3620
1313346693,1.3133,-2.0710,-4.2105
1321342685,1.3213,-2.1630,-4.0640
1329338677,1.3293,-2.2568,-3.9226
1337334669,1.3373,-2.3524,-3.7859
1345330661,1.3453,-2.4498,-3.6539
1353326653,1.3533,-2.5490,-3.5265
1361322645,1.3613,-2.6497,-3.4035
1369318637,1.3693,-2.7521,-3.2848
1377314629,1.3773,-2.8560,-3.1702
1385310621,1.3853,-2.9615,-3.0597
1393306613,1.3933,-3.0683,-2.9530
1401302605,1.4013,-3.1766,-2.8502
1409298597,1.4093,-3.2861,-2.7509
1417294589,1.4173,-3.3970,-2.6553
1425290581,1.4253,-3.5090,-2.5630
1433286573,1.4333,-3.6222,-2.4740
1441282565,1.4413,-3.7365,-2.3883
1449278557,1.4493,-3.8519,-2.3056
1457274549,1.4573,-3.9682,-2.2260
1465270541,1.4653,-4.0855,-2.1492
1473266533,1.4733,-4.2036,-2.0752
1481262525,1.4813,-4.3226,-2.0039
1489258517,1.4893,-4.4424,-1.9352
1497254509,1.4973,-4.5628,-1.8690
1505250501,1.5053,-4.6840,-1.8052
1513246493,1.5132,-4.8058,-1.7437
1521242485,1.5212,-4.9281,-1.6845
1529238477,1.5292,-5.0510,-1.6275
1537234469,1.5372,-5.1744,-1.5725
1545230461,1.5452,-5.2982,-1.5196
1553226453,1.5532,-5.4225,-1.4686
1561222445,1.5612,-5.5471,-1.4194
1569218437,1.5692,-5.6720,-1.3721
1577214429,1.5772,-5.7972,-1.3265
1585210421,1.5852,-5.9227,-1.2825
1593206413,1.5932,-6.0484,-1.2402
1601202405,1.6012,-6.1742,-1.1994
1609198397,1.6092,-6.3002,-1.1600
1617194389,1.6172,-6.4263,-1.1221
1625190381,1.6252,-6.5526,-1.0856
1633186373,1.6332,-6.6788,-1.0504
1641182365,1.6412,-6.8051,-1.0165
1649178357,1.6492,-6.9314,-0.9838
1657174349,1.6572,-7.0577,-0.9523
1665170341,1.6652,-7.1840,-0.9219
1673166333,1.6732,-7.3101,-0.8926
1681162325,1.6812,-7.4362,-0.8643
1689158317,1.6892,-7.5622,-0.8370
1697154309,1.6972,-7.6880,-0.8108
1705150301,1.7052,-7.8137,-0.7854
1713146293,1.7131,-7.9392,-0.7609
1721142285,1.7211,-8.0646,-0.7373
1729138277,1.7291,-8.1897,-0.7146
1737134269,1.7371,-8.3146,-0.6926
1745130261,1.7451,-8.4393,-0.6714
1753126253,1.7531,-8.5638,-0.6509
1761122244,1.7611,-8.6880,-0.6312
1769118236,1.7691,-8.8119,-0.6121
1777114228,1.7771,-8.9355,-0.5937
1785110220,1.7851,-9.0589,-0.5759
1793106212,1.7931,-9.1819,-0.5588
1801102204,1.8011,-9.3047,-0.5422
1809098196,1.8091,-9.4271,-0.5262
1817094188,1.8171,-9.5492,-0.5107
1825090180,1.8251,-9.6709,-0.4957
1833086172,1.8331,-9.7923,-0.4813
1841082164,1.8411,-9.9134,-0.4673
1849078156,1.8491,-10.0341,-0.4538
1857074148,1.8571,-10.1544,-0.4408
1865070140,1.8651,-10.2744,-0.4281
1873066132,1.8731,-10.3940,-0.4159
1881062124,1.8811,-10.5132,-0.4041
1889058116,1.8891,-10.6320,-0.3927
1897054108,1.8971,-10.7504,-0.3817
1905050100,1.9051,-10.8685,-0.3710
1913046092,1.9130,-10.9862,-0.3606
1921042084,1.9210,-11.1034,-0.3506
1929038076,1.9290,-11.2203,-0.3410
1937034068,1.9370,-11.3367,-0.3316
1945030060,1.9450,-11.4528,-0.3225
1953026052,1.9530,-11.5684,-0.3137
1961022044,1.9610,-11.6837,-0.3052
1969018036,1.9690,-11.7985,-0.2970
1977014028,1.9770,-11.9129,-0.2890
1985010020,1.9850,-12.0269,-0.2812
1993006012,1.9930,-12.1405,-0.2737
2001002004,2.0010,-12.2537,-0.2665
2008997996,2.0090,-12.3665,-0.2594
2016993988,2.0170,-12.4788,-0.2526
2024989980,2.0250,-12.5908,-0.2460
2032985972,2.0330,-12.7023,-0.2396
2040981964,2.0410,-12.8134,-0.2334
2048977956,2.0490,-12.9241,-0.2273
2056973948,2.0570,-13.0344,-0.2215
2064969940,2.0650,-13.1443,-0.2158
2072965932,2.0730,-13.2538,-0.2103
2080961924,2.0810,-13.3628,-0.2050
2088957916,2.0890,-13.4714,-0.1998
2096953908,2.0970,-13.5797,-0.1948
2104949900,2.1049,-13.6875,-0.1899
2112945892,2.1129,-13.7949,-0.1851
2120941884,2.1209,-13.9019,-0.1805
2128937876,2.1289,-14.0085,-0.1761
2136933868,2.1369,-14.1147,-0.1717
2144929860,2.1449,-14.2205,-0.1675
2152925852,2.1529,-14.3259,-0.1634
2160921844,2.1609,-14.4309,-0.1595
2168917836,2.1689,-14.5355,-0.1556
2176913828,2.1769,-14.6397,-0.1518
2184909820,2.1849,-14.7436,-0.1482
2192905812,2.1929,-14.8470,-0.1446
2200901804,2.2009,-14.9500,-0.1412
2208897796,2.2089,-15.0526,-0.1378
2216893788,2.2169,-15.1549,-0.1346
2224889780,2.2249,-15.2568,-0.1314
2232885772,2.2329,-15.3582,-0.1283
2240881764,2.2409,-15.4593,-0.1253
2248877756,2.2489,-15.5601,-0.1224
2256873747,2.2569,-15.6604,-0.1196
2264869739,2.2649,-15.7604,-0.1168
2272865731,2.2729,-15.8600,-0.1142
2280861723,2.2809,-15.9592,-0.1115
2288857715,2.2889,-16.0580,-0.1090
2296853707,2.2969,-16.1565,-0.1065
2304849699,2.3048,-16.2546,-0.1041
2312845691,2.3128,-16.3524,-0.1018
2320841683,2.3208,-16.4497,-0.0995
2328837675,2.3288,-16.5468,-0.0973
2336833667,2.3368,-16.6434,-0.0951
2344829659,2.3448,-16.7397,-0.0930
2352825651,2.3528,-16.8357,-0.0909
2360821643,2.3608,-16.9313,-0.0889
2368817635,2.3688,-17.0266,-0.0870
2376813627,2.3768,-17.1215,-0.0851
2384809619,2.3848,-17.2160,-0.0832
2392805611,2.3928,-17.3103,-0.0814
2400801603,2.4008,-17.4041,-0.0797
2408797595,2.4088,-17.4977,-0.0780
2416793587,2.4168,-17.5909,-0.0763
2424789579,2.4248,-17.6837,-0.0747
2432785571,2.4328,-17.7763,-0.0731
2440781563,2.4408,-17.8685,-0.0715
2448777555,2.4488,-17.9603,-0.0700
2456773547,2.4568,-18.0519,-0.0686
2464769539,2.4648,-18.1431,-0.0671
2472765531,2.4728,-18.2340,-0.0657
2480761523,2.4808,-18.3245,-0.0643
2488757515,2.4888,-18.4148,-0.0630
2496753507,2.4968,-18.5047,-0.0617
2504749499,2.5047,-18.5943,-0.0604
2512745491,2.5127,-18.6837,-0.0592
2520741483,2.5207,-18.7726,-0.0580
2528737475,2.5287,-18.8613,-0.0568
2536733467,2.5367,-18.9497,-0.0557
2544729459,2.5447,-19.0378,-0.0545
2552725451,2.5527,-19.1255,-0.0534
2560721443,2.5607,-19.2130,-0.0524
2568717435,2.5687,-19.3002,-0.0513
2576713427,2.5767,-19.3870,-0.0503
2584709419,2.5847,-19.4736,-0.0493
2592705411,2.5927,-19.5599,-0.0483
2600701403,2.6007,-19.6458,-0.0474
2608697395,2.6087,-19.7315,-0.0464
2616693387,2.6167,-19.8169,-0.0455
2624689379,2.6247,-19.9021,-0.0446
2632685371,2.6327,-19.9869,-0.0438
2640681363,2.6407,-20.0714,-0.0429
2648677355,2.6487,-20.1557,-0.0421
2656673347,2.6567,-20.2397,-0.0413
2664669339,2.6647,-20.3234,-0.0405
2672665331,2.6727,-20.4068,-0.0397
2680661323,2.6807,-20.4900,-0.0390
2688657315,2.6887,-20.5728,-0.0382
2696653307,2.6967,-20.6554,-0.0375
2704649299,2.7046,-20.7378,-0.0368
2712645291,2.7126,-20.8199,-0.0361
2720641283,2.7206,-20.9017,-0.0354
2728637275,2.7286,-20.9832,-0.0348
2736633267,2.7366,-21.0645,-0.0341
2744629259,2.7446,-21.1455,-0.0335
2752625251,2.7526,-21.2262,-0.0329
2760621242,2.7606,-21.3067,-0.0323
2768617234,2.7686,-21.3870,-0.0317
2776613226,2.7766,-21.4670,-0.0311
2784609218,2.7846,-21.5467,-0.0305
2792605210,2.7926,-21.6262,-0.0300
2800601202,2.8006,-21.7054,-0.0294
2808597194,2.8086,-21.7844,-0.0289
2816593186,2.8166,-21.8631,-0.0284
2824589178,2.8246,-21.9416,-0.0279
2832585170,2.8326,-22.0198,-0.0274
2840581162,2.8406,-22.0978,-0.0269
2848577154,2.8486,-22.1756,-0.0264
2856573146,2.8566,-22.2531,-0.0259
2864569138,2.8646,-22.3304,-0.0255
2872565130,2.8726,-22.4074,-0.0250
2880561122,2.8806,-22.4842,-0.0246
2888557114,2.8886,-22.5608,-0.0241
2896553106,2.8966,-22.6372,-0.0237
2904549098,2.9045,-22.7133,-0.0233
2912545090,2.9125,-22.7891,-0.0229
2920541082,2.9205,-22.8648,-0.0225
2928537074,2.9285,-22.9402,-0.0221
2936533066,2.9365,-23.0154,-0.0217
2944529058,2.9445,-23.0904,-0.0214
2952525050,2.9525,-23.1651,-0.0210
2960521042,2.9605,-23.2396,-0.0206
2968517034,2.9685,-23.3139,-0.0203
2976513026,2.9765,-23.3880,-0.0200
2984509018,2.9845,-23.4619,-0.0196
2992505010,2.9925,-23.5355,-0.0193
3000501002,3.0005,-23.6090,-0.0190
3008496994,3.0085,-23.6822,-0.0186
3016492986,3.0165,-23.7552,-0.0183
3024488978,3.0245,-23.8280,-0.0180
3032484970,3.0325,-23.9006,-0.0177
3040480962,3.0405,-23.9730,-0.0174
3048476954,3.0485,-24.0451,-0.0171
3056472946,3.0565,-24.1171,-0.0169
3064468938,3.0645,-24.1888,-0.0166
3072464930,3.0725,-24.2604,-0.0163
3080460922,3.0805,-24.3317,-0.0160
3088456914,3.0885,-24.4029,-0.0158
3096452906,3.0965,-24.4738,-0.0155
3104448898,3.1044,-24.5446,-0.0153
3112444890,3.1124,-24.6151,-0.0150
3120440882,3.1204,-24.6855,-0.0148
3128436874,3.1284,-24.7556,-0.0146
3136432866,3.1364,-24.8256,-0.0143
3144428858,3.1444,-24.8953,-0.0141
3152424850,3.1524,-24.9649,-0.0139
3160420842,3.1604,-25.0343,-0.0136
3168416834,3.1684,-25.1034,-0.0134
3176412826,3.1764,-25.1724,-0.0132
3184408818,3.1844,-25.2412,-0.0130
3192404810,3.1924,-25.3098,-0.0128
3200400802,3.2004,-25.3783,-0.0126
3208396794,3.2084,-25.4465,-0.0124
3216392786,3.2164,-25.5146,-0.0122
3224388778,3.2244,-25.5824,-0.0120
3232384770,3.2324,-25.6501,-0.0118
3240380762,3.2404,-25.7176,-0.0117
3248376754,3.2484,-25.7850,-0.0115
3256372745,3.2564,-25.8521,-0.0113
3264368737,3.2644,-25.9191,-0.0111
3272364729,3.2724,-25.9859,-0.0110
3280360721,3.2804,-26.0525,-0.0108
3288356713,3.2884,-26.1189,-0.0106
3296352705,3.2964,-26.1852,-0.0105
3304348697,3.3043,-26.2513,-0.0103
3312344689,3.3123,-26.3172,-0.0102
3320340681,3.3203,-26.3829,-0.0100
3328336673,3.3283,-26.4485,-0.0098
3336332665,3.3363,-26.5139,-0.0097
3344328657,3.3443,-26.5791,-0.0096
3352324649,3.3523,-26.6442,-0.0094
3360320641,3.3603,-26.7091,-0.0093
3368316633,3.3683,-26.7738,-0.0091
3376312625,3.3763,-26.8383,-0.0090
3384308617,3.3843,-26.9027,-0.0089
3392304609,3.3923,-26.9670,-0.0087
3400300601,3.4003,-27.0310,-0.0086
3408296593,3.4083,-27.0949,-0.0085
3416292585,3.4163,-27.1587,-0.0084
3424288577,3.4243,-27.2222,-0.0082
3432284569,3.4323,-27.2857,-0.0081
3440280561,3.4403,-27.3489,-0.0080
3448276553,3.4483,-27.4120,-0.0079
3456272545,3.4563,-27.4750,-0.0078
3464268537,3.4643,-27.5377,-0.0077
3472264529,3.4723,-27.6004,-0.0076
3480260521,3.4803,-27.6628,-0.0074
3488256513,3.4883,-27.7252,-0.0073
3496252505,3.4963,-27.7873,-0.0072
3504248497,3.5042,-27.8493,-0.0071
3512244489,3.5122,-27.9112,-0.0070
3520240481,3.5202,-27.9729,-0.0069
3528236473,3.5282,-28.0345,-0.0068
3536232465,3.5362,-28.0959,-0.0067
3544228457,3.5442,-28.1571,-0.0066
3552224449,3.5522,-28.2182,-0.0066
3560220441,3.5602,-28.2792,-0.0065
3568216433,3.5682,-28.3400,-0.0064
3576212425,3.5762,-28.4007,-0.0063
3584208417,3.5842,-28.4612,-0.0062
3592204409,3.5922,-28.5216,-0.0061
3600200401,3.6002,-28.5818,-0.0060
3608196393,3.6082,-28.6419,-0.0059
3616192385,3.6162,-28.7018,-0.0059
3624188377,3.6242,-28.7616,-0.0058
3632184369,3.6322,-28.8213,-0.0057
3640180361,3.6402,-28.8808,-0.0056
3648176353,3.6482,-28.9402,-0.0055
3656172345,3.6562,-28.9994,-0.0055
3664168337,3.6642,-29.0585,-0.0054
3672164329,3.6722,-29.1175,-0.0053
3680160321,3.6802,-29.1763,-0.0053
3688156313,3.6882,-29.2350,-0.0052
3696152305,3.6962,-29.2936,-0.0051
3704148297,3.7041,-29.3520,-0.0050
3712144289,3.7121,-29.4103,-0.0050
3720140281,3.7201,-29.4684,-0.0049
3728136273,3.7281,-29.5264,-0.0048
3736132265,3.7361,-29.5843,-0.0048
3744128257,3.7441,-29.6421,-0.0047
3752124248,3.7521,-29.6997,-0.0047
3760120240,3.7601,-29.7572,-0.0046
3768116232,3.7681,-29.8145,-0.0045
3776112224,3.7761,-29.8718,-0.0045
3784108216,3.7841,-29.9289,-0.0044
3792104208,3.7921,-29.9858,-0.0044
3800100200,3.8001,-30.0427,-0.0043
3808096192,3.8081,-30.0994,-0.0042
3816092184,3.8161,-30.1560,-0.0042
3824088176,3.8241,-30.2124,-0.0041
3832084168,3.8321,-30.2687,-0.0041
3840080160,3.8401,-30.3250,-0.0040
3848076152,3.8481,-30.3810,-0.0040
3856072144,3.8561,-30.4370,-0.0039
3864068136,3.8641,-30.4928,-0.0039
3872064128,3.8721,-30.5485,-0.0038
3880060120,3.8801,-30.6041,-0.0038
3888056112,3.8881,-30.6596,-0.0037
3896052104,3.8961,-30.7149,-0.0037
3904048096,3.9040,-30.7702,-0.0036
3912044088,3.9120,-30.8253,-0.0036
3920040080,3.9200,-30.8803,-0.0035
3928036072,3.9280,-30.9351,-0.0035
3936032064,3.9360,-30.9899,-0.0035
3944028056,3.9440,-31.0445,-0.0034
3952024048,3.9520,-31.0990,-0.0034
3960020040,3.9600,-31.1534,-0.0033
3968016032,3.9680,-31.2077,-0.0033
3976012024,3.9760,-31.2618,-0.0032
3984008016,3.9840,-31.3159,-0.0032
3992004008,3.9920,-31.3698,-0.0032
4000000000,4.0000,-31.4236,-0.0031
